<Qucs Dataset 0.0.19>
<indep time 201>
  +0.00000000000000000000e+000
  +2.99999999999999965249e-006
  +5.99999999999999930497e-006
  +8.99999999999999853394e-006
  +1.19999999999999986099e-005
  +1.49999999999999986859e-005
  +1.79999999999999970679e-005
  +2.09999999999999988380e-005
  +2.39999999999999972199e-005
  +2.69999999999999989900e-005
  +2.99999999999999973719e-005
  +3.29999999999999957538e-005
  +3.59999999999999941358e-005
  +3.89999999999999992940e-005
  +4.19999999999999976759e-005
  +4.49999999999999960578e-005
  +4.79999999999999944398e-005
  +5.09999999999999928217e-005
  +5.39999999999999979799e-005
  +5.69999999999999963619e-005
  +5.99999999999999947438e-005
  +6.29999999999999999020e-005
  +6.59999999999999915077e-005
  +6.89999999999999966659e-005
  +7.19999999999999882715e-005
  +7.49999999999999934297e-005
  +7.79999999999999985879e-005
  +8.09999999999999901936e-005
  +8.39999999999999953518e-005
  +8.69999999999999869575e-005
  +8.99999999999999921157e-005
  +9.29999999999999972739e-005
  +9.59999999999999888796e-005
  +9.89999999999999940378e-005
  +1.01999999999999985643e-004
  +1.04999999999999990802e-004
  +1.07999999999999995960e-004
  +1.10999999999999987566e-004
  +1.13999999999999992724e-004
  +1.16999999999999984329e-004
  +1.19999999999999989488e-004
  +1.22999999999999981093e-004
  +1.25999999999999999804e-004
  +1.28999999999999991410e-004
  +1.31999999999999983015e-004
  +1.34999999999999974621e-004
  +1.37999999999999993332e-004
  +1.40999999999999984937e-004
  +1.43999999999999976543e-004
  +1.46999999999999995254e-004
  +1.49999999999999986859e-004
  +1.52999999999999978465e-004
  +1.55999999999999997176e-004
  +1.58999999999999988782e-004
  +1.61999999999999980387e-004
  +1.64999999999999999098e-004
  +1.67999999999999990704e-004
  +1.70999999999999982309e-004
  +1.73999999999999973915e-004
  +1.76999999999999992626e-004
  +1.79999999999999984231e-004
  +1.82999999999999975837e-004
  +1.85999999999999994548e-004
  +1.88999999999999986153e-004
  +1.91999999999999977759e-004
  +1.94999999999999969365e-004
  +1.97999999999999988076e-004
  +2.00999999999999979681e-004
  +2.03999999999999971287e-004
  +2.06999999999999989998e-004
  +2.09999999999999981603e-004
  +2.12999999999999973209e-004
  +2.15999999999999991920e-004
  +2.18999999999999983525e-004
  +2.21999999999999975131e-004
  +2.24999999999999993842e-004
  +2.27999999999999985447e-004
  +2.30999999999999977053e-004
  +2.33999999999999968659e-004
  +2.36999999999999987369e-004
  +2.39999999999999978975e-004
  +2.42999999999999970581e-004
  +2.45999999999999962186e-004
  +2.48999999999999980897e-004
  +2.51999999999999999608e-004
  +2.54999999999999964109e-004
  +2.57999999999999982819e-004
  +2.61000000000000001530e-004
  +2.63999999999999966031e-004
  +2.66999999999999984741e-004
  +2.69999999999999949242e-004
  +2.72999999999999967953e-004
  +2.75999999999999986663e-004
  +2.78999999999999951164e-004
  +2.81999999999999969875e-004
  +2.84999999999999988586e-004
  +2.87999999999999953086e-004
  +2.90999999999999971797e-004
  +2.93999999999999990508e-004
  +2.96999999999999955008e-004
  +2.99999999999999973719e-004
  +3.02999999999999992430e-004
  +3.05999999999999956930e-004
  +3.08999999999999975641e-004
  +3.11999999999999994352e-004
  +3.14999999999999958852e-004
  +3.17999999999999977563e-004
  +3.20999999999999996274e-004
  +3.23999999999999960774e-004
  +3.26999999999999979485e-004
  +3.29999999999999998196e-004
  +3.32999999999999962697e-004
  +3.35999999999999981407e-004
  +3.38999999999999945908e-004
  +3.41999999999999964619e-004
  +3.44999999999999983329e-004
  +3.47999999999999947830e-004
  +3.50999999999999966541e-004
  +3.53999999999999985251e-004
  +3.56999999999999949752e-004
  +3.59999999999999968463e-004
  +3.62999999999999987173e-004
  +3.65999999999999951674e-004
  +3.68999999999999970385e-004
  +3.71999999999999989096e-004
  +3.74999999999999953596e-004
  +3.77999999999999972307e-004
  +3.80999999999999991018e-004
  +3.83999999999999955518e-004
  +3.86999999999999974229e-004
  +3.89999999999999938730e-004
  +3.92999999999999957440e-004
  +3.95999999999999976151e-004
  +3.98999999999999940652e-004
  +4.01999999999999959362e-004
  +4.04999999999999978073e-004
  +4.07999999999999942574e-004
  +4.10999999999999961284e-004
  +4.13999999999999979995e-004
  +4.16999999999999944496e-004
  +4.19999999999999963207e-004
  +4.22999999999999981917e-004
  +4.25999999999999946418e-004
  +4.28999999999999965129e-004
  +4.31999999999999983839e-004
  +4.34999999999999948340e-004
  +4.37999999999999967051e-004
  +4.40999999999999985761e-004
  +4.43999999999999950262e-004
  +4.46999999999999968973e-004
  +4.49999999999999987683e-004
  +4.52999999999999952184e-004
  +4.55999999999999970895e-004
  +4.58999999999999935395e-004
  +4.61999999999999954106e-004
  +4.64999999999999972817e-004
  +4.67999999999999937318e-004
  +4.70999999999999956028e-004
  +4.73999999999999974739e-004
  +4.76999999999999939240e-004
  +4.79999999999999957950e-004
  +4.82999999999999976661e-004
  +4.85999999999999941162e-004
  +4.88999999999999959872e-004
  +4.91999999999999924373e-004
  +4.94999999999999997294e-004
  +4.97999999999999961794e-004
  +5.00999999999999926295e-004
  +5.03999999999999999216e-004
  +5.06999999999999963717e-004
  +5.09999999999999928217e-004
  +5.13000000000000001138e-004
  +5.15999999999999965639e-004
  +5.18999999999999930139e-004
  +5.22000000000000003060e-004
  +5.24999999999999967561e-004
  +5.27999999999999932061e-004
  +5.31000000000000004982e-004
  +5.33999999999999969483e-004
  +5.36999999999999933983e-004
  +5.39999999999999898484e-004
  +5.42999999999999971405e-004
  +5.45999999999999935905e-004
  +5.48999999999999900406e-004
  +5.51999999999999973327e-004
  +5.54999999999999937828e-004
  +5.57999999999999902328e-004
  +5.60999999999999975249e-004
  +5.63999999999999939750e-004
  +5.66999999999999904250e-004
  +5.69999999999999977171e-004
  +5.72999999999999941672e-004
  +5.75999999999999906172e-004
  +5.78999999999999979093e-004
  +5.81999999999999943594e-004
  +5.84999999999999908094e-004
  +5.87999999999999981015e-004
  +5.90999999999999945516e-004
  +5.93999999999999910016e-004
  +5.96999999999999982937e-004
  +5.99999999999999947438e-004
</indep>
<dep V2.It time>
  +0.00000000000000000000e+000
  +0.00000000000000000000e+000
  +0.00000000000000000000e+000
  +0.00000000000000000000e+000
  +0.00000000000000000000e+000
  +0.00000000000000000000e+000
  +0.00000000000000000000e+000
  +0.00000000000000000000e+000
  +0.00000000000000000000e+000
  +0.00000000000000000000e+000
  +0.00000000000000000000e+000
  +0.00000000000000000000e+000
  +0.00000000000000000000e+000
  +0.00000000000000000000e+000
  +0.00000000000000000000e+000
  +0.00000000000000000000e+000
  +0.00000000000000000000e+000
  +0.00000000000000000000e+000
  +0.00000000000000000000e+000
  +0.00000000000000000000e+000
  +0.00000000000000000000e+000
  +0.00000000000000000000e+000
  +0.00000000000000000000e+000
  +0.00000000000000000000e+000
  +0.00000000000000000000e+000
  +0.00000000000000000000e+000
  +0.00000000000000000000e+000
  +0.00000000000000000000e+000
  +0.00000000000000000000e+000
  +0.00000000000000000000e+000
  +0.00000000000000000000e+000
  +0.00000000000000000000e+000
  +0.00000000000000000000e+000
  +0.00000000000000000000e+000
  +0.00000000000000000000e+000
  +0.00000000000000000000e+000
  +0.00000000000000000000e+000
  +0.00000000000000000000e+000
  +0.00000000000000000000e+000
  +0.00000000000000000000e+000
  +0.00000000000000000000e+000
  +0.00000000000000000000e+000
  +0.00000000000000000000e+000
  +0.00000000000000000000e+000
  +0.00000000000000000000e+000
  +0.00000000000000000000e+000
  +0.00000000000000000000e+000
  +0.00000000000000000000e+000
  +0.00000000000000000000e+000
  +0.00000000000000000000e+000
  +0.00000000000000000000e+000
  +0.00000000000000000000e+000
  +0.00000000000000000000e+000
  +0.00000000000000000000e+000
  +0.00000000000000000000e+000
  +0.00000000000000000000e+000
  +0.00000000000000000000e+000
  +0.00000000000000000000e+000
  +0.00000000000000000000e+000
  +0.00000000000000000000e+000
  +0.00000000000000000000e+000
  +0.00000000000000000000e+000
  +0.00000000000000000000e+000
  +0.00000000000000000000e+000
  +0.00000000000000000000e+000
  +0.00000000000000000000e+000
  +0.00000000000000000000e+000
  +0.00000000000000000000e+000
  +0.00000000000000000000e+000
  +0.00000000000000000000e+000
  +0.00000000000000000000e+000
  +0.00000000000000000000e+000
  +0.00000000000000000000e+000
  +0.00000000000000000000e+000
  +0.00000000000000000000e+000
  +0.00000000000000000000e+000
  +0.00000000000000000000e+000
  +0.00000000000000000000e+000
  +0.00000000000000000000e+000
  +0.00000000000000000000e+000
  +0.00000000000000000000e+000
  +0.00000000000000000000e+000
  +0.00000000000000000000e+000
  +0.00000000000000000000e+000
  +0.00000000000000000000e+000
  +0.00000000000000000000e+000
  +0.00000000000000000000e+000
  +0.00000000000000000000e+000
  +0.00000000000000000000e+000
  +0.00000000000000000000e+000
  +0.00000000000000000000e+000
  +0.00000000000000000000e+000
  +0.00000000000000000000e+000
  +0.00000000000000000000e+000
  +0.00000000000000000000e+000
  +0.00000000000000000000e+000
  +0.00000000000000000000e+000
  +0.00000000000000000000e+000
  +0.00000000000000000000e+000
  +0.00000000000000000000e+000
  +0.00000000000000000000e+000
  +0.00000000000000000000e+000
  +0.00000000000000000000e+000
  +0.00000000000000000000e+000
  +0.00000000000000000000e+000
  +0.00000000000000000000e+000
  +0.00000000000000000000e+000
  +0.00000000000000000000e+000
  +0.00000000000000000000e+000
  +0.00000000000000000000e+000
  +0.00000000000000000000e+000
  +0.00000000000000000000e+000
  +0.00000000000000000000e+000
  +0.00000000000000000000e+000
  +0.00000000000000000000e+000
  +0.00000000000000000000e+000
  +0.00000000000000000000e+000
  +0.00000000000000000000e+000
  +0.00000000000000000000e+000
  +0.00000000000000000000e+000
  +0.00000000000000000000e+000
  +0.00000000000000000000e+000
  +0.00000000000000000000e+000
  +0.00000000000000000000e+000
  +0.00000000000000000000e+000
  +0.00000000000000000000e+000
  +0.00000000000000000000e+000
  +0.00000000000000000000e+000
  +0.00000000000000000000e+000
  +0.00000000000000000000e+000
  +0.00000000000000000000e+000
  +0.00000000000000000000e+000
  +0.00000000000000000000e+000
  +0.00000000000000000000e+000
  +0.00000000000000000000e+000
  +0.00000000000000000000e+000
  +0.00000000000000000000e+000
  +0.00000000000000000000e+000
  +0.00000000000000000000e+000
  +0.00000000000000000000e+000
  +0.00000000000000000000e+000
  +0.00000000000000000000e+000
  +0.00000000000000000000e+000
  +0.00000000000000000000e+000
  +0.00000000000000000000e+000
  +0.00000000000000000000e+000
  +0.00000000000000000000e+000
  +0.00000000000000000000e+000
  +0.00000000000000000000e+000
  +0.00000000000000000000e+000
  +0.00000000000000000000e+000
  +0.00000000000000000000e+000
  +0.00000000000000000000e+000
  +0.00000000000000000000e+000
  +0.00000000000000000000e+000
  +0.00000000000000000000e+000
  +0.00000000000000000000e+000
  +0.00000000000000000000e+000
  +0.00000000000000000000e+000
  +0.00000000000000000000e+000
  +0.00000000000000000000e+000
  +0.00000000000000000000e+000
  +0.00000000000000000000e+000
  +0.00000000000000000000e+000
  +0.00000000000000000000e+000
  +0.00000000000000000000e+000
  +0.00000000000000000000e+000
  +0.00000000000000000000e+000
  +0.00000000000000000000e+000
  +0.00000000000000000000e+000
  +0.00000000000000000000e+000
  +0.00000000000000000000e+000
  +0.00000000000000000000e+000
  +0.00000000000000000000e+000
  +0.00000000000000000000e+000
  +0.00000000000000000000e+000
  +0.00000000000000000000e+000
  +0.00000000000000000000e+000
  +0.00000000000000000000e+000
  +0.00000000000000000000e+000
  +0.00000000000000000000e+000
  +0.00000000000000000000e+000
  +0.00000000000000000000e+000
  +0.00000000000000000000e+000
  +0.00000000000000000000e+000
  +0.00000000000000000000e+000
  +0.00000000000000000000e+000
  +0.00000000000000000000e+000
  +0.00000000000000000000e+000
  +0.00000000000000000000e+000
  +0.00000000000000000000e+000
  +0.00000000000000000000e+000
  +0.00000000000000000000e+000
  +0.00000000000000000000e+000
  +0.00000000000000000000e+000
  +0.00000000000000000000e+000
  +0.00000000000000000000e+000
  +0.00000000000000000000e+000
  +0.00000000000000000000e+000
  +0.00000000000000000000e+000
  +0.00000000000000000000e+000
</dep>
<dep V3.It time>
  +0.00000000000000000000e+000
  +0.00000000000000000000e+000
  +0.00000000000000000000e+000
  +0.00000000000000000000e+000
  +0.00000000000000000000e+000
  +0.00000000000000000000e+000
  +0.00000000000000000000e+000
  +0.00000000000000000000e+000
  +0.00000000000000000000e+000
  +0.00000000000000000000e+000
  +0.00000000000000000000e+000
  +0.00000000000000000000e+000
  +0.00000000000000000000e+000
  +0.00000000000000000000e+000
  +0.00000000000000000000e+000
  +0.00000000000000000000e+000
  +0.00000000000000000000e+000
  +0.00000000000000000000e+000
  +0.00000000000000000000e+000
  +0.00000000000000000000e+000
  +0.00000000000000000000e+000
  +0.00000000000000000000e+000
  +0.00000000000000000000e+000
  +0.00000000000000000000e+000
  +0.00000000000000000000e+000
  +0.00000000000000000000e+000
  +0.00000000000000000000e+000
  +0.00000000000000000000e+000
  +0.00000000000000000000e+000
  +0.00000000000000000000e+000
  +0.00000000000000000000e+000
  +0.00000000000000000000e+000
  +0.00000000000000000000e+000
  +0.00000000000000000000e+000
  +0.00000000000000000000e+000
  +0.00000000000000000000e+000
  +0.00000000000000000000e+000
  +0.00000000000000000000e+000
  +0.00000000000000000000e+000
  +0.00000000000000000000e+000
  +0.00000000000000000000e+000
  +0.00000000000000000000e+000
  +0.00000000000000000000e+000
  +0.00000000000000000000e+000
  +0.00000000000000000000e+000
  +0.00000000000000000000e+000
  +0.00000000000000000000e+000
  +0.00000000000000000000e+000
  +0.00000000000000000000e+000
  +0.00000000000000000000e+000
  +0.00000000000000000000e+000
  +0.00000000000000000000e+000
  +0.00000000000000000000e+000
  +0.00000000000000000000e+000
  +0.00000000000000000000e+000
  +0.00000000000000000000e+000
  +0.00000000000000000000e+000
  +0.00000000000000000000e+000
  +0.00000000000000000000e+000
  +0.00000000000000000000e+000
  +0.00000000000000000000e+000
  +0.00000000000000000000e+000
  +0.00000000000000000000e+000
  +0.00000000000000000000e+000
  +0.00000000000000000000e+000
  +0.00000000000000000000e+000
  +0.00000000000000000000e+000
  +0.00000000000000000000e+000
  +0.00000000000000000000e+000
  +0.00000000000000000000e+000
  +0.00000000000000000000e+000
  +0.00000000000000000000e+000
  +0.00000000000000000000e+000
  +0.00000000000000000000e+000
  +0.00000000000000000000e+000
  +0.00000000000000000000e+000
  +0.00000000000000000000e+000
  +0.00000000000000000000e+000
  +0.00000000000000000000e+000
  +0.00000000000000000000e+000
  +0.00000000000000000000e+000
  +0.00000000000000000000e+000
  +0.00000000000000000000e+000
  +0.00000000000000000000e+000
  +0.00000000000000000000e+000
  +0.00000000000000000000e+000
  +0.00000000000000000000e+000
  +0.00000000000000000000e+000
  +0.00000000000000000000e+000
  +0.00000000000000000000e+000
  +0.00000000000000000000e+000
  +0.00000000000000000000e+000
  +0.00000000000000000000e+000
  +0.00000000000000000000e+000
  +0.00000000000000000000e+000
  +0.00000000000000000000e+000
  +0.00000000000000000000e+000
  +0.00000000000000000000e+000
  +0.00000000000000000000e+000
  +0.00000000000000000000e+000
  +0.00000000000000000000e+000
  +0.00000000000000000000e+000
  +0.00000000000000000000e+000
  +0.00000000000000000000e+000
  +0.00000000000000000000e+000
  +0.00000000000000000000e+000
  +0.00000000000000000000e+000
  +0.00000000000000000000e+000
  +0.00000000000000000000e+000
  +0.00000000000000000000e+000
  +0.00000000000000000000e+000
  +0.00000000000000000000e+000
  +0.00000000000000000000e+000
  +0.00000000000000000000e+000
  +0.00000000000000000000e+000
  +0.00000000000000000000e+000
  +0.00000000000000000000e+000
  +0.00000000000000000000e+000
  +0.00000000000000000000e+000
  +0.00000000000000000000e+000
  +0.00000000000000000000e+000
  +0.00000000000000000000e+000
  +0.00000000000000000000e+000
  +0.00000000000000000000e+000
  +0.00000000000000000000e+000
  +0.00000000000000000000e+000
  +0.00000000000000000000e+000
  +0.00000000000000000000e+000
  +0.00000000000000000000e+000
  +0.00000000000000000000e+000
  +0.00000000000000000000e+000
  +0.00000000000000000000e+000
  +0.00000000000000000000e+000
  +0.00000000000000000000e+000
  +0.00000000000000000000e+000
  +0.00000000000000000000e+000
  +0.00000000000000000000e+000
  +0.00000000000000000000e+000
  +0.00000000000000000000e+000
  +0.00000000000000000000e+000
  +0.00000000000000000000e+000
  +0.00000000000000000000e+000
  +0.00000000000000000000e+000
  +0.00000000000000000000e+000
  +0.00000000000000000000e+000
  +0.00000000000000000000e+000
  +0.00000000000000000000e+000
  +0.00000000000000000000e+000
  +0.00000000000000000000e+000
  +0.00000000000000000000e+000
  +0.00000000000000000000e+000
  +0.00000000000000000000e+000
  +0.00000000000000000000e+000
  +0.00000000000000000000e+000
  +0.00000000000000000000e+000
  +0.00000000000000000000e+000
  +0.00000000000000000000e+000
  +0.00000000000000000000e+000
  +0.00000000000000000000e+000
  +0.00000000000000000000e+000
  +0.00000000000000000000e+000
  +0.00000000000000000000e+000
  +0.00000000000000000000e+000
  +0.00000000000000000000e+000
  +0.00000000000000000000e+000
  +0.00000000000000000000e+000
  +0.00000000000000000000e+000
  +0.00000000000000000000e+000
  +0.00000000000000000000e+000
  +0.00000000000000000000e+000
  +0.00000000000000000000e+000
  +0.00000000000000000000e+000
  +0.00000000000000000000e+000
  +0.00000000000000000000e+000
  +0.00000000000000000000e+000
  +0.00000000000000000000e+000
  +0.00000000000000000000e+000
  +0.00000000000000000000e+000
  +0.00000000000000000000e+000
  +0.00000000000000000000e+000
  +0.00000000000000000000e+000
  +0.00000000000000000000e+000
  +0.00000000000000000000e+000
  +0.00000000000000000000e+000
  +0.00000000000000000000e+000
  +0.00000000000000000000e+000
  +0.00000000000000000000e+000
  +0.00000000000000000000e+000
  +0.00000000000000000000e+000
  +0.00000000000000000000e+000
  +0.00000000000000000000e+000
  +0.00000000000000000000e+000
  +0.00000000000000000000e+000
  +0.00000000000000000000e+000
  +0.00000000000000000000e+000
  +0.00000000000000000000e+000
  +0.00000000000000000000e+000
  +0.00000000000000000000e+000
  +0.00000000000000000000e+000
  +0.00000000000000000000e+000
  +0.00000000000000000000e+000
</dep>
<dep V1.It time>
  -1.54944785933757247544e-003
  -1.48033297098982630571e-003
  -1.42471501040299748306e-003
  -1.37596176212441130386e-003
  -1.33194055792761468886e-003
  -1.29184529783129371447e-003
  -1.25523599302978573246e-003
  -1.22178654144962568241e-003
  -1.19121832160453073116e-003
  -1.16328165453172672865e-003
  -1.13774961119994673896e-003
  -1.11441511871050009073e-003
  -1.09308900770553347331e-003
  -1.07359841256979737963e-003
  -1.05578535017016202080e-003
  -1.03950543786228010064e-003
  -1.02462671734324562052e-003
  -1.01102859072401351191e-003
  -9.98600839152622050954e-004
  -9.87242729556460753629e-004
  -9.76862198907017592261e-004
  -9.67375108103381308768e-004
  -9.58704559868428854430e-004
  -9.50780275496053623764e-004
  -9.43538025009037434679e-004
  -9.36919106449794324848e-004
  -9.30869870291423529701e-004
  -9.25341284680338536407e-004
  -9.20288537897029877699e-004
  -9.15670675072602466456e-004
  -9.11450266244353993032e-004
  -9.07593102989350279317e-004
  -9.04067921181382844545e-004
  -9.00846147589854685800e-004
  -8.97900276394698556616e-004
  -8.95209047046724914684e-004
  -8.92749707078842498487e-004
  -8.90502107926790598472e-004
